Circuit: * C:\Users\ferra\OneDrive\Desktop\Appunti\3-1\Elettronica\spice\esercizi\pag18es7.asc

Direct Newton iteration for .op point succeeded.
Semiconductor Device Operating Points:
                        --- MOSFET Transistors ---
Name:          m2          m1
Model:        nmos        nmos
Id:          1.07e-04    1.07e-04
Vgs:         1.73e+00    1.73e+00
Vds:         1.01e+01    1.01e+01
Vbs:         0.00e+00    0.00e+00
Vth:         1.00e+00    1.00e+00
Vdsat:       7.31e-01    7.31e-01
Gm:          2.93e-04    2.93e-04
Gds:         0.00e+00    0.00e+00
Gmb:         0.00e+00    0.00e+00
Cbd:         0.00e+00    0.00e+00
Cbs:         0.00e+00    0.00e+00
Cgsov:       0.00e+00    0.00e+00
Cgdov:       0.00e+00    0.00e+00
Cgbov:       0.00e+00    0.00e+00
Cgs:         0.00e+00    0.00e+00
Cgd:         0.00e+00    0.00e+00
Cgb:         0.00e+00    0.00e+00



Date: Tue Jan 17 09:11:29 2023
Total elapsed time: 0.056 seconds.

tnom = 27
temp = 27
method = trap
totiter = 8
traniter = 0
tranpoints = 0
accept = 0
rejected = 0
matrix size = 7
fillins = 0
solver = Normal
Matrix Compiler1: 214 bytes object code size
Matrix Compiler2: 487 bytes object code size
