Circuit: * C:\Users\ferra\OneDrive\Desktop\Appunti\3-1\Elettronica\spice\2a sim\schemi\schema 2.16.asc

Direct Newton iteration for .op point succeeded.
Semiconductor Device Operating Points:
                        --- MOSFET Transistors ---
Name:         m§q6        m§q4        m§q3        m§q2        m§q1
Model:        pmos2       pmos1       pmos1       nmos1       nmos1
Id:         -2.00e-04   -1.00e-04   -1.00e-04    1.00e-04    1.00e-04
Vgs:        -6.00e-01   -6.00e-01   -6.00e-01    6.00e-01    6.00e-01
Vds:        -1.60e+00   -6.00e-01   -6.00e-01    9.00e-01    9.00e-01
Vbs:         0.00e+00    0.00e+00    0.00e+00    0.00e+00    0.00e+00
Vth:        -4.00e-01   -4.00e-01   -4.00e-01    4.00e-01    4.00e-01
Vdsat:      -2.00e-01   -2.00e-01   -2.00e-01    2.00e-01    2.00e-01
Gm:          2.00e-03    1.00e-03    1.00e-03    1.00e-03    1.00e-03
Gds:         0.00e+00    0.00e+00    0.00e+00    0.00e+00    0.00e+00
Gmb:         0.00e+00    0.00e+00    0.00e+00    0.00e+00    0.00e+00
Cbd:         0.00e+00    0.00e+00    0.00e+00    0.00e+00    0.00e+00
Cbs:         0.00e+00    0.00e+00    0.00e+00    0.00e+00    0.00e+00
Cgsov:       0.00e+00    0.00e+00    0.00e+00    0.00e+00    0.00e+00
Cgdov:       0.00e+00    0.00e+00    0.00e+00    0.00e+00    0.00e+00
Cgbov:       0.00e+00    0.00e+00    0.00e+00    0.00e+00    0.00e+00
Cgs:         0.00e+00    0.00e+00    0.00e+00    0.00e+00    0.00e+00
Cgd:         0.00e+00    0.00e+00    0.00e+00    0.00e+00    0.00e+00
Cgb:         0.00e+00    0.00e+00    0.00e+00    0.00e+00    0.00e+00

Name:         m§q7        m§q5        m§q8
Model:        nmos2       nmos2       nmos2
Id:          2.00e-04    2.00e-04    2.00e-04
Vgs:         6.00e-01    6.00e-01    6.00e-01
Vds:         1.99e-01    3.00e-01    6.00e-01
Vbs:         0.00e+00    0.00e+00    0.00e+00
Vth:         4.00e-01    4.00e-01    4.00e-01
Vdsat:       2.00e-01    2.00e-01    2.00e-01
Gm:          1.99e-03    2.00e-03    2.00e-03
Gds:         5.59e-06    0.00e+00    0.00e+00
Gmb:         0.00e+00    0.00e+00    0.00e+00
Cbd:         0.00e+00    0.00e+00    0.00e+00
Cbs:         0.00e+00    0.00e+00    0.00e+00
Cgsov:       0.00e+00    0.00e+00    0.00e+00
Cgdov:       0.00e+00    0.00e+00    0.00e+00
Cgbov:       0.00e+00    0.00e+00    0.00e+00
Cgs:         0.00e+00    0.00e+00    0.00e+00
Cgd:         0.00e+00    0.00e+00    0.00e+00
Cgb:         0.00e+00    0.00e+00    0.00e+00



Date: Wed Jan 11 11:10:52 2023
Total elapsed time: 0.075 seconds.

tnom = 27
temp = 27
method = trap
totiter = 24
traniter = 0
tranpoints = 0
accept = 0
rejected = 0
matrix size = 13
fillins = 2
solver = Normal
Matrix Compiler1: 754 bytes object code size
Matrix Compiler2: 1.14 KB object code size
